! TriQuint Semiconductor
! Device: TQP7M9104 ( 5V 2W High Linearity Amplifier)
! 24 pin QFN 4X4mm SMT Package
! De-embedded S-parameter meausred using port extensions on the PCB.
! Port 1 extension : 196.83ps
! Port 2 extension : 193.02ps
! Network Analyzer HP8753E.07.72: Apr 03, 2002 Serial No. US38161002
! 
! 25 Oct 2011  11:56:19
! Frequency       S11                S21                S12                S22
# HZ  S  DB R  50 
300000  -2.3286   -179.06    31.534   -174.65   -54.295    149.58   -5.4039    20.885   
7799625  -1.4436   -174.13    31.546    149.44   -45.526    54.616   -1.4962   -63.711   
15299250  -.833   -174.88    28.812    131.15   -43.009    32.96   -1.5416   -103.76   
22798875  -.6247   -176.38    26.18    123.87   -43.586    25.807   -1.6557   -125.33   
30298500  -.5095   -177.47    24.183    120.32   -42.59    18.402   -1.8549   -138.15   
37798125  -.4749   -178.08    22.558    118.71   -42.584    6.2663   -1.8907   -145.85   
45297750  -.4526   -178.69    21.268    118.52   -43.125    18.939   -1.818   -151.14   
52797375  -.4553   -179.26    20.126    118.98   -43.273    4.1446   -1.8524   -155.37   
60297000  -.4223   -179.57    19.232    119.28   -42.461    13.435   -1.8355   -158.16   
67796625  -.4239   -179.92    18.525    120.27   -42.58    19.049   -1.8479   -160.75   
75296250  -.4311    179.8    17.764    120.89   -43.002    16.934   -1.8751   -162.78   
82795875  -.4009    179.53    17.169    122.21   -41.919    2.5117   -1.8831   -163.78   
90295500  -.4138    179.13    16.735    122.2   -42.329    13.34   -1.952   -164.8   
97795125  -.4068    179.02    16.254    123.4   -43.089   -5.5783   -1.8621   -165.45   
105294750  -.4348    178.69    15.971    124.23   -42.615   -1.4433   -1.8878   -166.21   
112794375  -.4251    178.42    15.554    124.96   -42.949   -6.2485   -1.8424   -167.04   
120294000  -.4284    178.3    15.314    124.86   -40.878   -3.414   -1.8892   -167.66   
127793625  -.4397    178.25    15.146    125.77   -44.84    13.002   -1.8077   -168.06   
135293250  -.4333    177.98    14.896    125.09   -43.904    .0466   -1.831   -168.88   
142792875  -.4432    177.89    14.594    125.76   -42.584    2.682   -1.8373   -169.73   
150292500  -.4607    177.65    14.397    126.04   -43.515    2.0036   -1.8502   -169.91   
157792125  -.4384    177.36    14.211    126   -44.23    11.203   -1.8686   -170.49   
165291750  -.4607    177.31    13.998    126.21   -43.061    4.6129   -1.8918   -170.89   
172791375  -.4445    177.08    13.831    126.33   -42.136    10.125   -1.8672   -171.02   
180291000  -.4894    176.98    13.634    126.9   -42.267    9.0005   -1.9314   -171.26   
187790625  -.4729    176.69    13.464    126.38   -44.331    7.0779   -1.9148   -171.95   
195290250  -.4555    176.63    13.359    126.42   -44.752    13.185   -1.9423   -171.68   
202789875  -.4583    176.36    13.24    126.46   -40.235    2.3772   -1.859   -172.01   
210289500  -.4778    176.43    13.093    126.13   -43.432    3.7312   -1.8364   -172.23   
217789125  -.4727    176.19    12.981    126.46   -45.737   -4.3643   -1.7778   -172.17   
225288750  -.4929    176.08    12.826    126.22   -42.7   -10.333   -1.7216   -172.38   
232788375  -.4762    176.1    12.785    126.27   -43.289    10.191   -1.7332   -172.6   
240288000  -.4789    175.8    12.709    125.55   -43.201    7.5984   -1.6664   -172.44   
247787625  -.4855    175.84    12.584    125.73   -43.262    6.8266   -1.6671   -172.97   
255287250  -.4696    175.7    12.527    125.29   -43.552    2.1931   -1.6926   -172.96   
262786875  -.4754    175.72    12.397    124.95   -43.893    3.8631   -1.6941   -173.17   
270286500  -.4692    175.29    12.307    124.44   -42.161    8.7547   -1.6824   -173.42   
277786125  -.4959    175.26    12.248    124.23   -43.271   -13.814   -1.7034   -173.49   
285285750  -.4867    175.25    12.139    123.62   -42.266   -4.0237   -1.7163   -173.87   
292785375  -.4849    175.11    12.082    123.39   -41.624    9.2422   -1.7203   -173.53   
300285000  -.5140    174.89    11.984    123.16   -42.387   -7.1191   -1.7182   -173.69   
307784625  -.5116    174.73    11.855    122.81   -43.588   -3.1764   -1.7692   -174.06   
315284250  -.4833    174.66    11.748    122.2   -43.856   -10.867   -1.7276   -173.93   
322783875  -.5032    174.46    11.625    121.99   -41.825    6.0892   -1.7897   -174.07   
330283500  -.5211    174.37    11.599    121.7   -42.308    1.9473   -1.7225   -174.12   
337783125  -.5103    174.41    11.476    121.63   -44.802    10.099   -1.7341   -174.03   
345282750  -.5334    173.98    11.383    120.9   -41.285    3.3151   -1.7391   -174.57   
352782375  -.5191    174.22    11.334    120.76   -44.267   -.4229   -1.6448   -174.62   
360282000  -.5249    174.06    11.236    120.18   -43.69   -1.9597   -1.6554   -174.19   
367781625  -.5353    173.9    11.165    120.23   -41.988   -4.8766   -1.6606   -174.54   
375281250  -.5359    173.68    11.114    119.92   -42.765    .504   -1.6314   -174.7   
382780875  -.5436    173.61    11.085    119.05   -41.949   -9.7476   -1.6403   -174.67   
390280500  -.5413    173.52    10.971    118.59   -42.832   -.6660   -1.6137   -174.86   
397780125  -.5150    173.38    10.874    118.41   -43.939    7.3265   -1.5907   -174.98   
405279750  -.5124    173.38    10.778    118.38   -40.956    .7196   -1.5792   -174.84   
412779375  -.5266    173.34    10.739    117.49   -42.439   -9.9948   -1.546   -175.02   
420279000  -.5445    173.41    10.608    117.03   -43.125   -14.609   -1.6361   -174.97   
427778625  -.5442    173.18    10.559    116.64   -43.601   -9.1324   -1.5867   -175.37   
435278250  -.5366    173.06    10.451    116.35   -41.476    1.4117   -1.5864   -175.32   
442777875  -.5303    172.95    10.432    115.85   -42.968   -1.7235   -1.6023   -175.01   
450277500  -.5169    172.98    10.347    115.47   -44.526   -6.1043   -1.5754   -175.31   
457777125  -.5218    172.86    10.279    115.16   -43.199    2.7315   -1.6076   -175.38   
465276750  -.5685    172.61    10.204    114.8   -44.133   -2.0874   -1.6272   -175.38   
472776375  -.5128    172.66    10.086    114.42   -41.064    1.7262   -1.6048   -174.99   
480276000  -.5376    172.57    10.074    114.27   -42.414   -1.9556   -1.5453   -175.42   
487775625  -.5273    172.5    10.008    113.86   -42.146   -13.07   -1.5896   -175.32   
495275250  -.5381    172.36    9.9334    113.09   -45.368   -9.4894   -1.5742   -175.61   
502774875  -.5615    172.44    9.872    112.84   -41.913    2.7425   -1.5679   -175.69   
510274500  -.5349    172.2    9.8366    112.67   -43.93   -1.7001   -1.573   -175.64   
517774125  -.5550    172.1    9.687    112.1   -42.892   -4.6967   -1.5455   -175.79   
525273750  -.5672    171.78    9.6004    111.62   -44.092   -9.5924   -1.5585   -175.88   
532773375  -.5412    171.71    9.5633    110.86   -42.809    8.3153   -1.6033   -176.01   
540273000  -.5665    171.66    9.4952    110.53   -45.763   -7.3856   -1.604   -175.93   
547772625  -.5767    171.88    9.4327    110.28   -45.666   -11.636   -1.6256   -175.68   
555272250  -.5591    171.59    9.3659    109.97   -40.52    5.5138   -1.5859   -176   
562771875  -.5909    171.55    9.2601    109.78   -42.891   -4.7708   -1.6089   -175.67   
570271500  -.5662    171.67    9.2049    109.33   -43.526    .6536   -1.5897   -175.33   
577771125  -.5739    171.55    9.0798    109.11   -41.514    8.6284   -1.626   -175.47   
585270750  -.5671    171.75    9.0306    108.39   -41.956   -2.1217   -1.6095   -175.48   
592770375  -.5834    171.57    9.0084    108.34   -42.428    8.9896   -1.5949   -175.85   
600270000  -.5796    171.48    8.9263    108.51   -41.682    10.901   -1.6005   -175.51   
607769625  -.5754    171.52    8.8699    107.79   -43.78    13.531   -1.6341   -175.5   
615269250  -.5762    171.25    8.7983    107.27   -43.411    16.97   -1.6396   -175.65   
622768875  -.5795    171.26    8.7769    107.21   -42.105   -2.5378   -1.6175   -175.57   
630268500  -.6025    171.15    8.6238    106.73   -42.741    2.0901   -1.6202   -175.58   
637768125  -.6152    170.93    8.6262    106.75   -42.428    10.495   -1.6493   -175.7   
645267750  -.6050    170.93    8.5077    106.29   -43.419   -.7292   -1.6136   -175.45   
652767375  -.5868    170.91    8.5253    105.99   -41.902   -4.687   -1.6271   -175.4   
660267000  -.6000    170.8    8.422    105.44   -42.719    15.73   -1.567   -175.58   
667766625  -.6453    170.85    8.399    105.67   -43.554    6.6756   -1.6077   -175.49   
675266250  -.6371    170.67    8.2729    104.8   -42.956   -10.293   -1.6069   -175.4   
682765875  -.6131    170.63    8.3044    104.61   -42.769    1.6136   -1.562   -175.65   
690265500  -.6587    170.52    8.1848    104.54   -41.995    5.7362   -1.6165   -175.46   
697765125  -.6504    170.48    8.1576    104.02   -41.108    9.7078   -1.5618   -175.45   
705264750  -.6678    170.57    8.044    103.68   -43.282   -19.392   -1.5942   -175.49   
712764375  -.6406    170.36    8.0518    103.8   -41.037    .6770   -1.5658   -175.46   
720264000  -.6238    170.48    7.9187    103.31   -42.524    7.6959   -1.578   -175.45   
727763625  -.6259    170.24    7.9001    103.27   -44.126   -2.6367   -1.609   -175.33   
735263250  -.6213    170.27    7.8491    102.6   -41.655    4.4962   -1.5786   -175.19   
742762875  -.6332    170.25    7.7866    102.48   -43.365   -1.306   -1.5993   -175.62   
750262500  -.6243    170.17    7.7657    102.44   -44.54    2.5749   -1.6241   -175.07   
757762125  -.6401    170.4    7.6569    101.92   -42.809   -3.7299   -1.6202   -174.94   
765261750  -.6363    170.25    7.6551    101.72   -43.008   -8.1422   -1.6053   -174.95   
772761375  -.6354    170.1    7.5679    101.39   -42.89    8.9442   -1.6377   -175.07   
780261000  -.6324    170.14    7.5203    101.39   -43.55   -.9338   -1.6176   -174.99   
787760625  -.6316    170.11    7.4502    100.93   -41.692    10.55   -1.5904   -175.06   
795260250  -.6462    170.18    7.4311    100.62   -44.682    6.6385   -1.6237   -174.82   
802759875  -.6594    170.04    7.3201    100.05   -42.533   -8.3414   -1.6164   -174.73   
810259500  -.6382    170.1    7.3603    99.645   -42.781    6.8198   -1.5824   -174.66   
817759125  -.6882    170.08    7.2619    99.962   -41.78    2.2069   -1.5542   -175.11   
825258750  -.6860    170.09    7.2685    99.61   -44.946   -4.1844   -1.5939   -174.77   
832758375  -.6784    169.86    7.3162    99.272   -42.63   -.5809   -1.5471   -175.01   
840258000  -.6834    169.76    7.1102    98.845   -42.266    5.7431   -1.5994   -174.61   
847757625  -.6692    169.95    7.102    98.839   -41.305   -.5685   -1.5702   -174.84   
855257250  -.6856    169.82    7.0823    98.542   -42.232   -.7882   -1.5504   -174.9   
862756875  -.7062    169.67    7.0525    98.377   -42.84    2.0132   -1.5695   -174.6   
870256500  -.7245    169.62    6.9348    98.075   -41.753   -.8802   -1.5655   -174.48   
877756125  -.6991    169.57    6.9395    97.776   -41.143    .6550   -1.5943   -174.4   
885255750  -.7164    169.53    6.8196    97.949   -41.033    1.8951   -1.5087   -174.46   
892755375  -.7046    169.61    6.8133    96.998   -44.57    5.6676   -1.5864   -174.45   
900255000  -.7445    169.48    6.8256    96.975   -42.279   -7.5613   -1.561   -174.72   
907754625  -.7108    169.6    6.7651    96.982   -41.849   -11.485   -1.5545   -174.34   
915254250  -.7484    169.44    6.6419    97.049   -40.876   -10.407   -1.616   -174.31   
922753875  -.6937    169.56    6.691    96.183   -43.373   -4.2613   -1.5798   -174.37   
930253500  -.7262    169.47    6.575    96.375   -44.052   -10.04   -1.5729   -174.13   
937753125  -.7268    169.63    6.5397    96.211   -41.408    2.6971   -1.5972   -174.06   
945252750  -.6906    169.45    6.596    95.944   -41.637    6.3583   -1.5818   -174.21   
952752375  -.7102    169.5    6.5672    95.67   -42.607   -2.0668   -1.5778   -173.61   
960252000  -.7475    169.53    6.487    95.75   -41.644   -3.951   -1.5505   -173.96   
967751625  -.7472    169.51    6.4749    95.224   -42.447   -.9365   -1.5441   -174.14   
975251250  -.7297    169.54    6.4895    95.375   -41.124   -1.2277   -1.5958   -173.7   
982750875  -.7236    169.29    6.4483    94.287   -43.467    13.881   -1.5334   -173.73   
990250500  -.7195    169.5    6.3657    94.61   -41.665   -.5067   -1.537   -174.11   
997750125  -.7456    169.35    6.3267    93.825   -40.599   -1.0863   -1.5443   -173.66   
1005249750  -.7617    169.21    6.2878    93.94   -42.841    6.4435   -1.531   -173.74   
1012749375  -.7429    169.25    6.2336    92.998   -41.495   -2.8043   -1.5768   -173.49   
1020249000  -.7793    169.39    6.2467    93.494   -44.866   -9.1887   -1.5539   -173.24   
1027748625  -.7741    169.21    6.2205    93.392   -42.664    12.21   -1.5525   -173.38   
1035248250  -.7793    169.37    6.1794    93.407   -41.893   -16.286   -1.5564   -173.12   
1042747875  -.8162    169.05    6.1738    92.932   -41.018    7.9843   -1.5908   -172.87   
1050247500  -.8234    169.32    6.047    92.968   -40.648   -6.2347   -1.605   -173.2   
1057747125  -.8325    169.22    6.0515    92.937   -42.461    .3158   -1.5995   -173.21   
1065246750  -.7860    169.13    6.0583    92.313   -43.268   -16.317   -1.5702   -172.78   
1072746375  -.8257    169.16    6.0121    92.531   -41.469    6.7126   -1.5756   -172.88   
1080246000  -.8760    168.85    6.0144    91.932   -40.877   -2.6971   -1.609   -172.46   
1087745625  -.8280    169.01    5.9825    91.663   -41.158    4.3657   -1.619   -172.51   
1095245250  -.8373    168.9    5.8882    92.043   -42.028   -18.594   -1.6335   -173.21   
1102744875  -.8274    169.15    5.9393    91.726   -41.509    7.1494   -1.6328   -172.82   
1110244500  -.8097    169.16    5.954    91.723   -41.773   -3.6653   -1.5784   -172.61   
1117744125  -.8074    169.04    5.906    91.338   -41.888    8.3578   -1.5678   -172.54   
1125243750  -.8252    169.24    5.8452    90.985   -41.263    4.0388   -1.63   -172.71   
1132743375  -.8333    169.02    5.8401    90.639   -41.288   -2.2055   -1.6076   -172.54   
1140243000  -.8387    169.02    5.863    90.424   -42.507    1.8141   -1.6314   -172.49   
1147742625  -.8245    169.04    5.8429    90.284   -42.163    3.5747   -1.5896   -172.49   
1155242250  -.8631    169.02    5.7429    90.141   -39.521   -7.1988   -1.5528   -172.21   
1162741875  -.8304    169.1    5.7997    89.871   -41.295    8.031   -1.591   -171.94   
1170241500  -.8648    168.89    5.8185    89.434   -43.574    1.0904   -1.5929   -172.37   
1177741125  -.8617    168.98    5.7053    89.418   -40.622   -7.7536   -1.5908   -171.76   
1185240750  -.8945    168.95    5.7288    88.835   -42.539    11.155   -1.5959   -171.79   
1192740375  -.8676    168.72    5.6821    88.831   -41.268   -4.4371   -1.605   -171.38   
1200240000  -.8777    168.95    5.7693    89.116   -40.461    3.1558   -1.6296   -171.43   
1207739625  -.9189    168.91    5.6846    88.579   -41.051   -25.668   -1.6317   -171.56   
1215239250  -.9114    168.86    5.6922    88.223   -39.247    .1400   -1.6628   -171.4   
1222738875  -.9448    169.03    5.6343    88.901   -40.914   -.0755   -1.6409   -171.02   
1230238500  -.9361    168.91    5.5635    88.149   -41.576   -2.4733   -1.6177   -171.34   
1237738125  -.9312    168.84    5.6049    87.818   -38.722   -.5548   -1.6777   -171.26   
1245237750  -.9449    168.93    5.6495    87.922   -42.776   -10.956   -1.6293   -171.26   
1252737375  -.9529    168.71    5.6071    87.341   -39.875   -3.7944   -1.6606   -171.33   
1260237000  -.9551    168.73    5.5931    87.483   -41.676   -5.8145   -1.6643   -171.08   
1267736625  -.9459    168.82    5.6251    87.437   -40.274   -2.9045   -1.6383   -171.29   
1275236250  -.9399    168.84    5.6284    86.538   -41.404   -6.1606   -1.632   -170.92   
1282735875  -.9547    168.78    5.6089    86.911   -40.688   -5.6841   -1.6852   -170.97   
1290235500  -.9705    168.68    5.6055    86.995   -42.85    5.2666   -1.6123   -170.75   
1297735125  -.9573    168.8    5.6407    86.343   -40.637   -.9942   -1.6617   -170.9   
1305234750  -.9675    168.85    5.6014    85.454   -40.912   -12.971   -1.6719   -170.64   
1312734375  -.9709    169.05    5.5494    85.789   -41.332   -1.7331   -1.6571   -170.52   
1320234000  -.9931    168.99    5.6061    85.697   -41.815   -10.606   -1.6542   -170.06   
1327733625  -1.0168    168.88    5.5341    85.232   -40.032    2.8743   -1.6716   -170.08   
1335233250  -.9884    168.71    5.5422    85.213   -42.31   -10.872   -1.6706   -170.16   
1342732875  -.9884    168.67    5.6075    85.163   -39.502   -.8706   -1.7441   -170.05   
1350232500  -1.0448    168.74    5.5463    84.615   -40.546   -16.312   -1.6672   -169.92   
1357732125  -1.0616    168.9    5.5748    84.216   -41.821    1.1385   -1.6898   -169.86   
1365231750  -1.0668    168.82    5.64    84.275   -40.964   -5.7445   -1.7298   -170.16   
1372731375  -1.0596    168.64    5.5883    83.941   -39.948   -10.127   -1.7214   -169.73   
1380231000  -1.0841    168.52    5.5593    83.863   -39.971    5.2872   -1.7465   -169.61   
1387730625  -1.1166    168.66    5.5902    83.606   -41.32   -14.837   -1.7683   -169.73   
1395230250  -1.1048    168.64    5.6381    83.204   -39.556   -5.7994   -1.7594   -169.54   
1402729875  -1.1121    168.56    5.5556    83.209   -39.435   -.2787   -1.7656   -170.12   
1410229500  -1.1129    168.46    5.6724    82.727   -40.788   -11.809   -1.7989   -169.91   
1417729125  -1.1545    168.48    5.5973    82.466   -41.141   -4.8161   -1.7563   -169.57   
1425228750  -1.1604    168.41    5.6254    81.973   -39.515   -4.1624   -1.7784   -169.42   
1432728375  -1.14    168.52    5.6425    82.093   -40.664   -5.4849   -1.7575   -169.24   
1440228000  -1.1717    168.41    5.6494    81.569   -38.916   -13.353   -1.7263   -169.64   
1447727625  -1.1704    168.63    5.5576    81.439   -39.258   -7.597   -1.735   -169.52   
1455227250  -1.1611    168.26    5.6551    80.976   -40.754   -15.866   -1.7598   -169.2   
1462726875  -1.1614    168.53    5.6019    81.063   -39.889   -15.529   -1.7705   -168.89   
1470226500  -1.1593    168.25    5.6988    80.993   -41.038   -4.8642   -1.7647   -169.1   
1477726125  -1.1754    168.44    5.6829    80.63   -39.963   -4.4165   -1.7446   -168.86   
1485225750  -1.212    168.18    5.7478    80.442   -40.168   -4.3094   -1.8222   -168.53   
1492725375  -1.2278    168.21    5.7604    79.386   -39.09   -4.194   -1.7385   -168.42   
1500225000  -1.1976    168.23    5.8306    79.665   -39.574   -7.2263   -1.7392   -168.03   
1507724625  -1.2246    168.16    5.8234    78.88   -38.657   -2.4912   -1.7796   -168.32   
1515224250  -1.2641    168.22    5.8072    78.536   -40.506   -15.596   -1.7839   -168.18   
1522723875  -1.2828    168.26    5.7678    78.268   -39.988   -13.737   -1.8481   -167.95   
1530223500  -1.3271    168.22    5.797    78.161   -39.47   -5.9999   -1.8276   -168.26   
1537723125  -1.32    168.31    5.8669    77.813   -40.738   -1.4571   -1.8843   -167.61   
1545222750  -1.3189    168.11    5.8316    77.34   -39.979   -7.4776   -1.8337   -168.12   
1552722375  -1.3904    167.98    5.8163    76.554   -39.445   -2.476   -1.9043   -167.94   
1560222000  -1.3682    168.01    5.8834    76.962   -39.662   -3.138   -1.8727   -167.9   
1567721625  -1.4121    168    5.8583    76.479   -39.149   -15.798   -1.8863   -167.79   
1575221250  -1.4274    168.01    5.8839    75.861   -41.056   -12.645   -1.8942   -167.7   
1582720875  -1.4275    167.94    5.8196    75.69   -40.812   -13.484   -1.8945   -167.88   
1590220500  -1.4432    167.9    5.9173    75.068   -39.947   -9.2931   -1.8819   -167.61   
1597720125  -1.4827    167.83    5.9259    74.89   -37.652   -18.7   -1.9229   -167.62   
1605219750  -1.4274    167.84    6.0222    74.67   -41.097   -1.3568   -1.8812   -167.74   
